T6DC4 000:016.282   SEGGER J-Link V6.70e Log File
T6DC4 000:016.519   DLL Compiled: Apr 17 2020 17:55:05
T6DC4 000:016.568   Logging started @ 2020-09-30 08:01
T6DC4 000:016.589 JLINK_SetWarnOutHandler(...)
T6DC4 000:016.608 - 0.027ms
T6DC4 000:016.630 JLINK_OpenEx(...)
T6DC4 000:018.689   Firmware: J-Link V10 compiled Jun  9 2020 13:38:07
T6DC4 000:019.043   Decompressing FW timestamp took 242 us
T6DC4 000:022.449   Hardware: V10.10
T6DC4 000:022.520   S/N: 50116470
T6DC4 000:022.546   OEM: SEGGER
T6DC4 000:022.598   Feature(s): GDB
T6DC4 000:024.853   TELNET listener socket opened on port 19021
T6DC4 000:025.165   WEBSRV Starting webserver
T6DC4 000:025.489   WEBSRV Webserver running on local port 19080
T6DC4 000:025.530 - 8.912ms returns "O.K."
T6DC4 000:025.570 JLINK_GetEmuCaps()
T6DC4 000:025.595 - 0.035ms returns 0xB9FF7BBF
T6DC4 000:025.631 JLINK_TIF_GetAvailable(...)
T6DC4 000:025.780 - 0.170ms
T6DC4 000:025.823 JLINK_SetErrorOutHandler(...)
T6DC4 000:025.848 - 0.036ms
T6DC4 000:025.892 JLINK_ExecCommand("ProjectFile = "C:\Users\nxf48054\Desktop\pytorch\glow\eIQ Glow EAR2.1 RT1060\SDK_2.8.1_EVK-MIMXRT1060\boards\evkmimxrt1060\demo_apps\hello_world_flash_loader\mdk\JLinkSettings.ini"", ...). 
T6DC4 000:042.221   Ref file found at: C:\Keil_v5\ARM\Segger\JLinkDevices.ref
T6DC4 000:042.680   XML referenced by ref file: C:\Program Files (x86)\SEGGER\JLink\JLinkDevices.xml
T6DC4 000:043.911   C:\Program Files (x86)\SEGGER\JLink\JLinkDevices.xml evaluated successfully.
T6DC4 000:128.130 - 102.265ms returns 0x00
T6DC4 000:128.191 JLINK_ExecCommand("Device = MIMXRT1062DVL6A", ...). 
T6DC4 000:130.112   Device "MIMXRT1062XXX6A" selected.
T6DC4 000:131.381 - 3.198ms returns 0x00
T6DC4 000:131.475 JLINK_ExecCommand("DisableConnectionTimeout", ...). 
T6DC4 000:131.618 - 0.018ms returns 0x01
T6DC4 000:131.644 JLINK_GetHardwareVersion()
T6DC4 000:131.661 - 0.025ms returns 0x18A88
T6DC4 000:131.681 JLINK_GetDLLVersion()  returns 67005
T6DC4 000:131.709 JLINK_GetFirmwareString(...)
T6DC4 000:131.726 - 0.024ms
T6DC4 000:131.817 JLINK_GetDLLVersion()  returns 67005
T6DC4 000:131.897 JLINK_GetCompileDateTime()
T6DC4 000:131.930 - 0.041ms
T6DC4 000:131.993 JLINK_GetFirmwareString(...)
T6DC4 000:132.029 - 0.061ms
T6DC4 000:132.107 JLINK_GetHardwareVersion()
T6DC4 000:132.143 - 0.060ms returns 0x18A88
T6DC4 000:132.227 JLINK_TIF_Select(JLINKARM_TIF_SWD)
T6DC4 000:132.979 - 0.766ms returns 0x00
T6DC4 000:133.038 JLINK_SetSpeed(5000)
T6DC4 000:133.149 - 0.124ms
T6DC4 000:133.177 JLINK_GetId()
T6DC4 000:133.437   InitTarget() start
T6DC4 000:133.466    J-Link Script File: Executing InitTarget()
T6DC4 000:133.530   InitTarget()
T6DC4 000:135.876   _TargetHalt: CPU halted
T6DC4 000:135.933   InitTarget() end
T6DC4 000:136.422   Found SW-DP with ID 0x0BD11477
T6DC4 000:138.008   DPIDR: 0x0BD11477
T6DC4 000:138.052   Scanning AP map to find all available APs
T6DC4 000:138.500   AP[1]: Stopped AP scan as end of AP map has been reached
T6DC4 000:138.535   AP[0]: AHB-AP (IDR: 0x04770041)
T6DC4 000:138.565   Iterating through AP map to find AHB-AP to use
T6DC4 000:139.098   AP[0]: Core found
T6DC4 000:139.135   AP[0]: AHB-AP ROM base: 0xE00FD000
T6DC4 000:139.388   CPUID register: 0x411FC271. Implementer code: 0x41 (ARM)
T6DC4 000:139.424   Found Cortex-M7 r1p1, Little endian.
T6DC4 000:240.797    -- Max. mem block: 0x00004540
T6DC4 000:241.207   CPU_ReadMem(4 bytes @ 0xE000EDF0)
T6DC4 000:241.521   CPU_ReadMem(4 bytes @ 0xE0002000)
T6DC4 000:241.868   FPUnit: 8 code (BP) slots and 0 literal slots
T6DC4 000:241.902   CPU_ReadMem(4 bytes @ 0xE000EDFC)
T6DC4 000:242.220   CPU_WriteMem(4 bytes @ 0xE000EDFC)
T6DC4 000:242.613   CPU_ReadMem(4 bytes @ 0xE0001000)
T6DC4 000:243.021   CPU_WriteMem(4 bytes @ 0xE0001000)
T6DC4 000:243.372   CPU_ReadMem(4 bytes @ 0xE000ED88)
T6DC4 000:243.691   CPU_WriteMem(4 bytes @ 0xE000ED88)
T6DC4 000:244.021   CPU_ReadMem(4 bytes @ 0xE000ED88)
T6DC4 000:244.272   CPU_WriteMem(4 bytes @ 0xE000ED88)
T6DC4 000:244.549   CoreSight components:
T6DC4 000:244.591   ROMTbl[0] @ E00FD000
T6DC4 000:244.664   CPU_ReadMem(64 bytes @ 0xE00FD000)
T6DC4 000:245.102   CPU_ReadMem(32 bytes @ 0xE00FEFE0)
T6DC4 000:245.468   ROMTbl[0][0]: E00FE000, CID: B105100D, PID: 000BB4C8 ROM Table
T6DC4 000:245.504   ROMTbl[1] @ E00FE000
T6DC4 000:245.530   CPU_ReadMem(64 bytes @ 0xE00FE000)
T6DC4 000:245.981   CPU_ReadMem(32 bytes @ 0xE00FFFE0)
T6DC4 000:246.371   ROMTbl[1][0]: E00FF000, CID: B105100D, PID: 000BB4C7 ROM Table
T6DC4 000:246.408   ROMTbl[2] @ E00FF000
T6DC4 000:246.434   CPU_ReadMem(64 bytes @ 0xE00FF000)
T6DC4 000:246.872   CPU_ReadMem(32 bytes @ 0xE000EFE0)
T6DC4 000:247.242   ROMTbl[2][0]: E000E000, CID: B105E00D, PID: 000BB00C SCS-M7
T6DC4 000:247.275   CPU_ReadMem(32 bytes @ 0xE0001FE0)
T6DC4 000:247.654   ROMTbl[2][1]: E0001000, CID: B105E00D, PID: 000BB002 DWT
T6DC4 000:247.685   CPU_ReadMem(32 bytes @ 0xE0002FE0)
T6DC4 000:248.049   ROMTbl[2][2]: E0002000, CID: B105E00D, PID: 000BB00E FPB-M7
T6DC4 000:248.081   CPU_ReadMem(32 bytes @ 0xE0000FE0)
T6DC4 000:248.446   ROMTbl[2][3]: E0000000, CID: B105E00D, PID: 000BB001 ITM
T6DC4 000:248.476   CPU_ReadMem(32 bytes @ 0xE0041FE0)
T6DC4 000:248.925   ROMTbl[1][1]: E0041000, CID: B105900D, PID: 001BB975 ETM-M7
T6DC4 000:248.973   CPU_ReadMem(32 bytes @ 0xE0042FE0)
T6DC4 000:249.375   ROMTbl[1][2]: E0042000, CID: B105900D, PID: 004BB906 CTI
T6DC4 000:249.423   CPU_ReadMem(32 bytes @ 0xE0040FE0)
T6DC4 000:249.848   ROMTbl[0][1]: E0040000, CID: B105900D, PID: 000BB9A9 TPIU-M7
T6DC4 000:249.881   CPU_ReadMem(32 bytes @ 0xE0043FE0)
T6DC4 000:250.224   ROMTbl[0][2]: E0043000, CID: B105F00D, PID: 001BB101 TSG
T6DC4 000:250.259   CPU_ReadMem(4 bytes @ 0xE000ED78)
T6DC4 000:250.549   Cache: Separate I- and D-cache.
T6DC4 000:250.571   CPU_WriteMem(4 bytes @ 0xE000ED84)
T6DC4 000:250.830   CPU_ReadMem(4 bytes @ 0xE000ED80)
T6DC4 000:251.110   I-Cache L1: 32 KB, 512 Sets, 32 Bytes/Line, 2-Way
T6DC4 000:251.144   CPU_WriteMem(4 bytes @ 0xE000ED84)
T6DC4 000:251.416   CPU_ReadMem(4 bytes @ 0xE000ED80)
T6DC4 000:251.699   D-Cache L1: 32 KB, 256 Sets, 32 Bytes/Line, 4-Way
T6DC4 000:251.953 - 118.789ms   returns 0x0BD11477
T6DC4 000:251.986 JLINK_GetDLLVersion()  returns 67005
T6DC4 000:252.045 JLINK_CORE_GetFound()
T6DC4 000:252.064 - 0.027ms returns 0xE0100FF
T6DC4 000:252.085 JLINK_GetDebugInfo(0x100 = JLINKARM_ROM_TABLE_ADDR_INDEX)
T6DC4 000:252.106   Value=0xE00FD000
T6DC4 000:252.131 - 0.054ms returns 0x00
T6DC4 000:252.161 JLINK_GetDebugInfo(0x100 = JLINKARM_ROM_TABLE_ADDR_INDEX)
T6DC4 000:252.180   Value=0xE00FD000
T6DC4 000:252.219 - 0.067ms returns 0x00
T6DC4 000:252.239 JLINK_GetDebugInfo(0x101 = JLINKARM_DEBUG_INFO_ETM_ADDR_INDEX)
T6DC4 000:252.271   Value=0xE0041000
T6DC4 000:252.296 - 0.064ms returns 0x00
T6DC4 000:252.321   JLINK_ReadMemEx(0xE0041FD0, 0x0020 Bytes, ..., Flags = 0x02000004)
T6DC4 000:252.364   CPU_ReadMem(32 bytes @ 0xE0041FD0)
T6DC4 000:252.715   Data:  04 00 00 00 00 00 00 00 00 00 00 00 00 00 00 00 ...
T6DC4 000:252.745 - 0.434ms returns 0x20
T6DC4 000:252.767 JLINK_GetDebugInfo(0x102 = JLINKARM_DEBUG_INFO_MTB_ADDR_INDEX)
T6DC4 000:252.785   Value=0x00000000
T6DC4 000:252.809 - 0.050ms returns 0x00
T6DC4 000:252.829 JLINK_GetDebugInfo(0x103 = JLINKARM_DEBUG_INFO_TPIU_ADDR_INDEX)
T6DC4 000:252.846   Value=0xE0040000
T6DC4 000:252.872 - 0.051ms returns 0x00
T6DC4 000:252.892 JLINK_GetDebugInfo(0x104 = JLINKARM_DEBUG_INFO_ITM_ADDR_INDEX)
T6DC4 000:252.909   Value=0xE0000000
T6DC4 000:252.933 - 0.049ms returns 0x00
T6DC4 000:252.952 JLINK_GetDebugInfo(0x105 = JLINKARM_DEBUG_INFO_DWT_ADDR_INDEX)
T6DC4 000:252.969   Value=0xE0001000
T6DC4 000:252.993 - 0.049ms returns 0x00
T6DC4 000:253.013 JLINK_GetDebugInfo(0x106 = JLINKARM_DEBUG_INFO_FPB_ADDR_INDEX)
T6DC4 000:253.030   Value=0xE0002000
T6DC4 000:253.054 - 0.049ms returns 0x00
T6DC4 000:253.073 JLINK_GetDebugInfo(0x107 = JLINKARM_DEBUG_INFO_NVIC_ADDR_INDEX)
T6DC4 000:253.090   Value=0xE000E000
T6DC4 000:253.114 - 0.049ms returns 0x00
T6DC4 000:253.133 JLINK_GetDebugInfo(0x10C = JLINKARM_DEBUG_INFO_DBG_ADDR_INDEX)
T6DC4 000:253.153   Value=0xE000EDF0
T6DC4 000:253.185 - 0.061ms returns 0x00
T6DC4 000:253.207 JLINK_GetDebugInfo(0x01 = Unknown)
T6DC4 000:253.227   Value=0x00000001
T6DC4 000:253.251 - 0.052ms returns 0x00
T6DC4 000:253.287 JLINK_ReadMemU32(0xE000ED00, 0x0001 Items, ...)
T6DC4 000:253.308   CPU_ReadMem(4 bytes @ 0xE000ED00)
T6DC4 000:253.552   Data:  71 C2 1F 41
T6DC4 000:253.600    - CPUID
T6DC4 000:253.625 - 0.346ms returns 1
T6DC4 000:253.647 JLINK_GetDebugInfo(0x10F = JLINKARM_DEBUG_INFO_HAS_CORTEX_M_SECURITY_EXT_INDEX)
T6DC4 000:253.665   Value=0x00000000
T6DC4 000:253.690 - 0.050ms returns 0x00
T6DC4 000:253.713 JLINK_SetResetType(JLINKARM_CM3_RESET_TYPE_CORE)
T6DC4 000:253.730 - 0.026ms returns JLINKARM_CM3_RESET_TYPE_NORMAL
T6DC4 000:253.754 JLINK_Reset()
T6DC4 000:253.820   CPU is running
T6DC4 000:253.849   CPU_WriteMem(4 bytes @ 0xE000EDF0)
T6DC4 000:254.166   CPU is running
T6DC4 000:254.205   CPU_WriteMem(4 bytes @ 0xE000EDFC)
T6DC4 000:254.559   Reset: Halt core after reset via DEMCR.VC_CORERESET.
T6DC4 000:254.739   Reset: Reset device via AIRCR.VECTRESET.
T6DC4 000:254.776   CPU is running
T6DC4 000:254.806   CPU_WriteMem(4 bytes @ 0xE000ED0C)
T6DC4 000:255.195   CPU_ReadMem(4 bytes @ 0xE000EDF0)
T6DC4 000:255.554   CPU_ReadMem(4 bytes @ 0xE000EDF0)
T6DC4 000:255.842   CPU is running
T6DC4 000:255.940   CPU_WriteMem(4 bytes @ 0xE000EDF0)
T6DC4 000:256.381   CPU is running
T6DC4 000:256.432   CPU_WriteMem(4 bytes @ 0xE000EDFC)
T6DC4 000:262.244   CPU_ReadMem(4 bytes @ 0xE000EDF0)
T6DC4 000:264.256   CPU_WriteMem(4 bytes @ 0xE0002000)
T6DC4 000:264.586   CPU_ReadMem(4 bytes @ 0xE000EDFC)
T6DC4 000:264.904   CPU_ReadMem(4 bytes @ 0xE0001000)
T6DC4 000:265.226 - 11.489ms
T6DC4 000:265.275 JLINK_ReadReg(R15 (PC))
T6DC4 000:265.296 - 0.029ms returns 0x00202090
T6DC4 000:265.316 JLINK_ReadReg(XPSR)
T6DC4 000:265.333 - 0.026ms returns 0x01000000
T6DC4 000:265.353 JLINK_Halt()
T6DC4 000:265.370 - 0.024ms returns 0x00
T6DC4 000:265.389 JLINK_ReadMemU32(0xE000EDF0, 0x0001 Items, ...)
T6DC4 000:265.410   CPU_ReadMem(4 bytes @ 0xE000EDF0)
T6DC4 000:265.704   Data:  03 00 03 00
T6DC4 000:265.736    - DHCSR
T6DC4 000:265.760 - 0.378ms returns 1
T6DC4 000:265.782 JLINK_WriteU32(0xE000EDF0, 0xA05F0003)
T6DC4 000:265.799    - DHCSR
T6DC4 000:265.833   CPU_WriteMem(4 bytes @ 0xE000EDF0)
T6DC4 000:266.121 - 0.354ms returns 0
T6DC4 000:266.150 JLINK_WriteU32(0xE000EDFC, 0x01000000)
T6DC4 000:266.167    - DEMCR
T6DC4 000:266.241   CPU_WriteMem(4 bytes @ 0xE000EDFC)
T6DC4 000:266.546 - 0.413ms returns 0
T6DC4 000:266.617 JLINK_GetHWStatus(...)
T6DC4 000:266.834 - 0.233ms returns 0x00
T6DC4 000:266.888 JLINK_GetNumBPUnits(Type = 0xFFFFFF00)
T6DC4 000:266.907 - 0.027ms returns 0x08
T6DC4 000:266.926 JLINK_GetNumBPUnits(Type = 0xF0)
T6DC4 000:266.943 - 0.024ms returns 0x2000
T6DC4 000:266.962 JLINK_GetNumWPUnits()
T6DC4 000:266.978 - 0.026ms returns 0x04
T6DC4 000:267.014 JLINK_GetSpeed()
T6DC4 000:267.030 - 0.024ms returns 0x1388
T6DC4 000:267.058 JLINK_ReadMemU32(0xE000E004, 0x0001 Items, ...)
T6DC4 000:267.080   CPU_ReadMem(4 bytes @ 0xE000E004)
T6DC4 000:267.402   Data:  04 00 00 00
T6DC4 000:267.437 - 0.387ms returns 1
T6DC4 000:267.460 JLINK_ReadMemU32(0xE000E004, 0x0001 Items, ...)
T6DC4 000:267.481   CPU_ReadMem(4 bytes @ 0xE000E004)
T6DC4 000:267.788   Data:  04 00 00 00
T6DC4 000:267.819 - 0.367ms returns 1
T6DC4 000:267.841 JLINK_WriteMemEx(0xE0001000, 0x001C Bytes, ..., Flags = 0x02000004)
T6DC4 000:267.859   Data:  01 00 00 00 00 00 00 00 00 00 00 00 00 00 00 00 ...
T6DC4 000:268.592   CPU_WriteMem(28 bytes @ 0xE0001000)
T6DC4 000:269.007 - 1.183ms returns 0x1C
T6DC4 000:269.055 JLINK_ReadReg(R15 (PC))
T6DC4 000:269.075 - 0.029ms returns 0x00202090
T6DC4 000:269.095 JLINK_ReadReg(XPSR)
T6DC4 000:269.114 - 0.027ms returns 0x01000000
T6DC4 000:273.861   JLINK_ReadMemEx(0xE0001004, 0x0004 Bytes, ..., Flags = 0x02000000)
T6DC4 000:273.907   Data:  00 00 00 00
T6DC4 000:273.932    - DWT_CYCCNT
T6DC4 000:273.956 - 0.103ms returns 0x04
T6DC4 001:618.358 JLINK_ReadReg(R0)
T6DC4 001:618.843 - 0.504ms returns 0x00000000
T6DC4 001:618.876 JLINK_ReadReg(R1)
T6DC4 001:618.894 - 0.026ms returns 0x00000000
T6DC4 001:618.913 JLINK_ReadReg(R2)
T6DC4 001:618.934 - 0.028ms returns 0x00000000
T6DC4 001:618.952 JLINK_ReadReg(R3)
T6DC4 001:618.968 - 0.023ms returns 0x00000000
T6DC4 001:618.987 JLINK_ReadReg(R4)
T6DC4 001:619.002 - 0.023ms returns 0x00000000
T6DC4 001:619.021 JLINK_ReadReg(R5)
T6DC4 001:619.036 - 0.023ms returns 0x00000000
T6DC4 001:619.055 JLINK_ReadReg(R6)
T6DC4 001:619.070 - 0.023ms returns 0x00000000
T6DC4 001:619.088 JLINK_ReadReg(R7)
T6DC4 001:619.104 - 0.023ms returns 0x00000000
T6DC4 001:619.122 JLINK_ReadReg(R8)
T6DC4 001:619.138 - 0.023ms returns 0x00000000
T6DC4 001:619.157 JLINK_ReadReg(R9)
T6DC4 001:619.173 - 0.024ms returns 0x00000000
T6DC4 001:619.191 JLINK_ReadReg(R10)
T6DC4 001:619.208 - 0.024ms returns 0x00000000
T6DC4 001:619.226 JLINK_ReadReg(R11)
T6DC4 001:619.241 - 0.023ms returns 0x00000000
T6DC4 001:619.260 JLINK_ReadReg(R12)
T6DC4 001:619.275 - 0.023ms returns 0x00000000
T6DC4 001:619.294 JLINK_ReadReg(R13 (SP))
T6DC4 001:619.309 - 0.023ms returns 0x20201000
T6DC4 001:619.328 JLINK_ReadReg(R14)
T6DC4 001:619.343 - 0.023ms returns 0xFFFFFFFF
T6DC4 001:619.361 JLINK_ReadReg(R15 (PC))
T6DC4 001:619.377 - 0.023ms returns 0x00202090
T6DC4 001:619.395 JLINK_ReadReg(XPSR)
T6DC4 001:619.411 - 0.023ms returns 0x01000000
T6DC4 001:619.429 JLINK_ReadReg(MSP)
T6DC4 001:619.445 - 0.023ms returns 0x20201000
T6DC4 001:619.463 JLINK_ReadReg(PSP)
T6DC4 001:619.479 - 0.024ms returns 0x00000000
T6DC4 001:619.497 JLINK_ReadReg(CFBP)
T6DC4 001:619.513 - 0.023ms returns 0x00000000
T6DC4 001:619.531 JLINK_ReadReg(FPSCR)
T6DC4 001:622.117 - 2.634ms returns 0x00000000
T6DC4 001:622.221 JLINK_ReadReg(FPS0)
T6DC4 001:622.275 - 0.062ms returns 0x00000000
T6DC4 001:622.313 JLINK_ReadReg(FPS1)
T6DC4 001:622.345 - 0.044ms returns 0x00000000
T6DC4 001:622.369 JLINK_ReadReg(FPS2)
T6DC4 001:622.386 - 0.025ms returns 0x00000000
T6DC4 001:622.423 JLINK_ReadReg(FPS3)
T6DC4 001:622.460 - 0.063ms returns 0x00000000
T6DC4 001:622.498 JLINK_ReadReg(FPS4)
T6DC4 001:622.514 - 0.027ms returns 0x00000000
T6DC4 001:622.543 JLINK_ReadReg(FPS5)
T6DC4 001:622.570 - 0.035ms returns 0x00000000
T6DC4 001:622.591 JLINK_ReadReg(FPS6)
T6DC4 001:622.608 - 0.025ms returns 0x00000000
T6DC4 001:622.628 JLINK_ReadReg(FPS7)
T6DC4 001:622.645 - 0.025ms returns 0x00000000
T6DC4 001:622.665 JLINK_ReadReg(FPS8)
T6DC4 001:622.683 - 0.026ms returns 0x00000000
T6DC4 001:622.704 JLINK_ReadReg(FPS9)
T6DC4 001:622.721 - 0.042ms returns 0x00000000
T6DC4 001:622.779 JLINK_ReadReg(FPS10)
T6DC4 001:622.795 - 0.045ms returns 0x00000000
T6DC4 001:622.837 JLINK_ReadReg(FPS11)
T6DC4 001:622.892 - 0.079ms returns 0x00000000
T6DC4 001:622.927 JLINK_ReadReg(FPS12)
T6DC4 001:622.966 - 0.065ms returns 0x00000000
T6DC4 001:623.004 JLINK_ReadReg(FPS13)
T6DC4 001:623.020 - 0.024ms returns 0x00000000
T6DC4 001:623.038 JLINK_ReadReg(FPS14)
T6DC4 001:623.055 - 0.024ms returns 0x00000000
T6DC4 001:623.075 JLINK_ReadReg(FPS15)
T6DC4 001:623.091 - 0.024ms returns 0xFFFFFFFF
T6DC4 001:623.110 JLINK_ReadReg(FPS16)
T6DC4 001:623.127 - 0.024ms returns 0x00000000
T6DC4 001:623.146 JLINK_ReadReg(FPS17)
T6DC4 001:623.162 - 0.025ms returns 0x00000000
T6DC4 001:623.182 JLINK_ReadReg(FPS18)
T6DC4 001:623.199 - 0.024ms returns 0x00000000
T6DC4 001:623.218 JLINK_ReadReg(FPS19)
T6DC4 001:623.234 - 0.024ms returns 0x00000000
T6DC4 001:623.253 JLINK_ReadReg(FPS20)
T6DC4 001:623.269 - 0.024ms returns 0x00000000
T6DC4 001:623.288 JLINK_ReadReg(FPS21)
T6DC4 001:623.304 - 0.024ms returns 0x00000000
T6DC4 001:623.323 JLINK_ReadReg(FPS22)
T6DC4 001:623.339 - 0.024ms returns 0x00000000
T6DC4 001:623.357 JLINK_ReadReg(FPS23)
T6DC4 001:623.374 - 0.024ms returns 0x00000000
T6DC4 001:623.393 JLINK_ReadReg(FPS24)
T6DC4 001:623.409 - 0.024ms returns 0x00000000
T6DC4 001:623.429 JLINK_ReadReg(FPS25)
T6DC4 001:623.445 - 0.026ms returns 0x00000000
T6DC4 001:623.509 JLINK_ReadReg(FPS26)
T6DC4 001:623.533 - 0.031ms returns 0x00000000
T6DC4 001:623.552 JLINK_ReadReg(FPS27)
T6DC4 001:623.568 - 0.024ms returns 0x00000000
T6DC4 001:623.587 JLINK_ReadReg(FPS28)
T6DC4 001:623.604 - 0.024ms returns 0x00000000
T6DC4 001:623.623 JLINK_ReadReg(FPS29)
T6DC4 001:623.639 - 0.024ms returns 0x00000000
T6DC4 001:623.660 JLINK_ReadReg(FPS30)
T6DC4 001:623.677 - 0.025ms returns 0x00000000
T6DC4 001:623.696 JLINK_ReadReg(FPS31)
T6DC4 001:623.714 - 0.026ms returns 0xFFFFFFFF
T6DC4 001:623.777   JLINK_ReadMemEx(0x60000000, 0x00A0 Bytes, ..., Flags = 0x02000000)
T6DC4 001:623.812   CPU_ReadMem(192 bytes @ 0x60000000)
T6DC4 001:624.750    -- Updating C cache (192 bytes @ 0x60000000)
T6DC4 001:624.787    -- Read from C cache (160 bytes @ 0x60000000)
T6DC4 001:624.813   Data:  56 56 56 56 56 56 56 56 56 56 56 56 56 56 56 56 ...
T6DC4 001:624.836 - 1.068ms returns 0xA0
T6DC4 001:627.951   JLINK_ReadMemEx(0x60000000, 0x00A0 Bytes, ..., Flags = 0x02000000)
T6DC4 001:627.989    -- Read from C cache (160 bytes @ 0x60000000)
T6DC4 001:628.015   Data:  56 56 56 56 56 56 56 56 56 56 56 56 56 56 56 56 ...
T6DC4 001:628.039 - 0.097ms returns 0xA0
T6DC4 001:628.393   JLINK_ReadMemEx(0x60000000, 0x00A0 Bytes, ..., Flags = 0x02000000)
T6DC4 001:628.423    -- Read from C cache (160 bytes @ 0x60000000)
T6DC4 001:628.449   Data:  56 56 56 56 56 56 56 56 56 56 56 56 56 56 56 56 ...
T6DC4 001:628.473 - 0.088ms returns 0xA0
T6DC4 002:215.831   JLINK_ReadMemEx(0x00000000, 0x003C Bytes, ..., Flags = 0x02000000)
T6DC4 002:215.885   CPU_ReadMem(60 bytes @ 0x00000000)
T6DC4 002:216.352   Data:  00 00 02 20 3D 04 00 00 79 04 00 00 89 1C 00 00 ...
T6DC4 002:216.386 - 0.579ms returns 0x3C
T6DC4 002:216.425   JLINK_ReadMemEx(0x00000000, 0x0002 Bytes, ..., Flags = 0x02000000)
T6DC4 002:216.453   CPU_ReadMem(2 bytes @ 0x00000000)
T6DC4 002:216.697   Data:  00 00
T6DC4 002:216.743 - 0.326ms returns 0x02
T6DC4 002:216.767   JLINK_ReadMemEx(0x00000002, 0x0002 Bytes, ..., Flags = 0x02000000)
T6DC4 002:216.795   CPU_ReadMem(2 bytes @ 0x00000002)
T6DC4 002:217.031   Data:  02 20
T6DC4 002:217.075 - 0.317ms returns 0x02
T6DC4 002:217.105   JLINK_ReadMemEx(0x00000002, 0x0002 Bytes, ..., Flags = 0x02000000)
T6DC4 002:217.134   CPU_ReadMem(2 bytes @ 0x00000002)
T6DC4 002:217.383   Data:  02 20
T6DC4 002:217.412 - 0.315ms returns 0x02
T6DC4 002:217.449   JLINK_ReadMemEx(0x00000004, 0x003C Bytes, ..., Flags = 0x02000000)
T6DC4 002:217.477   CPU_ReadMem(60 bytes @ 0x00000004)
T6DC4 002:217.886   Data:  3D 04 00 00 79 04 00 00 89 1C 00 00 75 04 00 00 ...
T6DC4 002:217.916 - 0.475ms returns 0x3C
T6DC4 002:217.938   JLINK_ReadMemEx(0x00000004, 0x0002 Bytes, ..., Flags = 0x02000000)
T6DC4 002:217.979   CPU_ReadMem(2 bytes @ 0x00000004)
T6DC4 002:218.221   Data:  3D 04
T6DC4 002:218.251 - 0.321ms returns 0x02
T6DC4 002:218.292   JLINK_ReadMemEx(0x00000004, 0x003C Bytes, ..., Flags = 0x02000000)
T6DC4 002:218.321   CPU_ReadMem(60 bytes @ 0x00000004)
T6DC4 002:218.723   Data:  3D 04 00 00 79 04 00 00 89 1C 00 00 75 04 00 00 ...
T6DC4 002:218.752 - 0.468ms returns 0x3C
T6DC4 002:218.788   JLINK_ReadMemEx(0x00000004, 0x0002 Bytes, ..., Flags = 0x02000000)
T6DC4 002:218.816   CPU_ReadMem(2 bytes @ 0x00000004)
T6DC4 002:219.050   Data:  3D 04
T6DC4 002:219.079 - 0.300ms returns 0x02
T6DC4 002:219.116   JLINK_ReadMemEx(0x00000006, 0x0002 Bytes, ..., Flags = 0x02000000)
T6DC4 002:219.143   CPU_ReadMem(2 bytes @ 0x00000006)
T6DC4 002:219.385   Data:  00 00
T6DC4 002:219.414 - 0.307ms returns 0x02
T6DC4 002:219.455   JLINK_ReadMemEx(0x00000006, 0x0002 Bytes, ..., Flags = 0x02000000)
T6DC4 002:219.483   CPU_ReadMem(2 bytes @ 0x00000006)
T6DC4 002:219.719   Data:  00 00
T6DC4 002:219.753 - 0.321ms returns 0x02
T6DC4 002:219.792   JLINK_ReadMemEx(0x00000008, 0x003C Bytes, ..., Flags = 0x02000000)
T6DC4 002:219.824   CPU_ReadMem(60 bytes @ 0x00000008)
T6DC4 002:220.252   Data:  79 04 00 00 89 1C 00 00 75 04 00 00 75 04 00 00 ...
T6DC4 002:220.297 - 0.514ms returns 0x3C
T6DC4 002:220.320   JLINK_ReadMemEx(0x00000008, 0x0002 Bytes, ..., Flags = 0x02000000)
T6DC4 002:220.355   CPU_ReadMem(2 bytes @ 0x00000008)
T6DC4 002:220.598   Data:  79 04
T6DC4 002:220.663 - 0.353ms returns 0x02
T6DC4 002:220.694   JLINK_ReadMemEx(0x00000008, 0x003C Bytes, ..., Flags = 0x02000000)
T6DC4 002:220.726   CPU_ReadMem(60 bytes @ 0x00000008)
T6DC4 002:221.180   Data:  79 04 00 00 89 1C 00 00 75 04 00 00 75 04 00 00 ...
T6DC4 002:221.228 - 0.543ms returns 0x3C
T6DC4 002:221.269   JLINK_ReadMemEx(0x00000008, 0x0002 Bytes, ..., Flags = 0x02000000)
T6DC4 002:221.315   CPU_ReadMem(2 bytes @ 0x00000008)
T6DC4 002:221.552   Data:  79 04
T6DC4 002:221.612 - 0.354ms returns 0x02
T6DC4 002:221.674   JLINK_ReadMemEx(0x0000000A, 0x0002 Bytes, ..., Flags = 0x02000000)
T6DC4 002:221.718   CPU_ReadMem(2 bytes @ 0x0000000A)
T6DC4 002:221.968   Data:  00 00
T6DC4 002:221.998 - 0.333ms returns 0x02
T6DC4 002:222.040   JLINK_ReadMemEx(0x0000000A, 0x0002 Bytes, ..., Flags = 0x02000000)
T6DC4 002:222.069   CPU_ReadMem(2 bytes @ 0x0000000A)
T6DC4 002:222.301   Data:  00 00
T6DC4 002:222.330 - 0.299ms returns 0x02
T6DC4 002:222.368   JLINK_ReadMemEx(0x0000000C, 0x003C Bytes, ..., Flags = 0x02000000)
T6DC4 002:222.396   CPU_ReadMem(60 bytes @ 0x0000000C)
T6DC4 002:222.819   Data:  89 1C 00 00 75 04 00 00 75 04 00 00 75 04 00 00 ...
T6DC4 002:222.849 - 0.490ms returns 0x3C
T6DC4 002:222.872   JLINK_ReadMemEx(0x0000000C, 0x0002 Bytes, ..., Flags = 0x02000000)
T6DC4 002:222.902   CPU_ReadMem(2 bytes @ 0x0000000C)
T6DC4 002:223.146   Data:  89 1C
T6DC4 002:223.176 - 0.313ms returns 0x02
T6DC4 002:223.203   JLINK_ReadMemEx(0x0000000C, 0x003C Bytes, ..., Flags = 0x02000000)
T6DC4 002:223.232   CPU_ReadMem(60 bytes @ 0x0000000C)
T6DC4 002:223.635   Data:  89 1C 00 00 75 04 00 00 75 04 00 00 75 04 00 00 ...
T6DC4 002:223.666 - 0.471ms returns 0x3C
T6DC4 002:223.688   JLINK_ReadMemEx(0x0000000C, 0x0002 Bytes, ..., Flags = 0x02000000)
T6DC4 002:223.730   CPU_ReadMem(2 bytes @ 0x0000000C)
T6DC4 002:223.968   Data:  89 1C
T6DC4 002:224.013 - 0.333ms returns 0x02
T6DC4 002:224.037   JLINK_ReadMemEx(0x0000000E, 0x0002 Bytes, ..., Flags = 0x02000000)
T6DC4 002:224.081   CPU_ReadMem(2 bytes @ 0x0000000E)
T6DC4 002:224.317   Data:  00 00
T6DC4 002:224.347 - 0.319ms returns 0x02
T6DC4 002:224.390   JLINK_ReadMemEx(0x0000000E, 0x0002 Bytes, ..., Flags = 0x02000000)
T6DC4 002:224.419   CPU_ReadMem(2 bytes @ 0x0000000E)
T6DC4 002:224.668   Data:  00 00
T6DC4 002:224.698 - 0.316ms returns 0x02
T6DC4 002:224.721   JLINK_ReadMemEx(0x00000010, 0x003C Bytes, ..., Flags = 0x02000000)
T6DC4 002:224.750   CPU_ReadMem(60 bytes @ 0x00000010)
T6DC4 002:225.220   Data:  75 04 00 00 75 04 00 00 75 04 00 00 00 00 00 00 ...
T6DC4 002:225.249 - 0.536ms returns 0x3C
T6DC4 002:225.272   JLINK_ReadMemEx(0x00000010, 0x0002 Bytes, ..., Flags = 0x02000000)
T6DC4 002:225.300   CPU_ReadMem(2 bytes @ 0x00000010)
T6DC4 002:225.533   Data:  75 04
T6DC4 002:225.567 - 0.304ms returns 0x02
T6DC4 002:225.595   JLINK_ReadMemEx(0x00000010, 0x003C Bytes, ..., Flags = 0x02000000)
T6DC4 002:225.626   CPU_ReadMem(60 bytes @ 0x00000010)
T6DC4 002:226.032   Data:  75 04 00 00 75 04 00 00 75 04 00 00 00 00 00 00 ...
T6DC4 002:226.076 - 0.490ms returns 0x3C
T6DC4 002:226.099   JLINK_ReadMemEx(0x00000010, 0x0002 Bytes, ..., Flags = 0x02000000)
T6DC4 002:226.128   CPU_ReadMem(2 bytes @ 0x00000010)
T6DC4 002:226.380   Data:  75 04
T6DC4 002:226.413 - 0.322ms returns 0x02
T6DC4 002:226.450   JLINK_ReadMemEx(0x00000012, 0x0002 Bytes, ..., Flags = 0x02000000)
T6DC4 002:226.478   CPU_ReadMem(2 bytes @ 0x00000012)
T6DC4 002:226.725   Data:  00 00
T6DC4 002:226.769 - 0.328ms returns 0x02
T6DC4 002:226.797   JLINK_ReadMemEx(0x00000012, 0x0002 Bytes, ..., Flags = 0x02000000)
T6DC4 002:226.826   CPU_ReadMem(2 bytes @ 0x00000012)
T6DC4 002:227.067   Data:  00 00
T6DC4 002:227.111 - 0.323ms returns 0x02
T6DC4 002:227.134   JLINK_ReadMemEx(0x00000014, 0x003C Bytes, ..., Flags = 0x02000000)
T6DC4 002:227.162   CPU_ReadMem(60 bytes @ 0x00000014)
T6DC4 002:227.601   Data:  75 04 00 00 75 04 00 00 00 00 00 00 00 00 00 00 ...
T6DC4 002:227.651 - 0.525ms returns 0x3C
T6DC4 002:227.674   JLINK_ReadMemEx(0x00000014, 0x0002 Bytes, ..., Flags = 0x02000000)
T6DC4 002:227.702   CPU_ReadMem(2 bytes @ 0x00000014)
T6DC4 002:227.945   Data:  75 04
T6DC4 002:227.974 - 0.309ms returns 0x02
T6DC4 002:228.014   JLINK_ReadMemEx(0x00000014, 0x003C Bytes, ..., Flags = 0x02000000)
T6DC4 002:228.042   CPU_ReadMem(60 bytes @ 0x00000014)
T6DC4 002:228.513   Data:  75 04 00 00 75 04 00 00 00 00 00 00 00 00 00 00 ...
T6DC4 002:228.575 - 0.571ms returns 0x3C
T6DC4 002:228.607   JLINK_ReadMemEx(0x00000014, 0x0002 Bytes, ..., Flags = 0x02000000)
T6DC4 002:228.659   CPU_ReadMem(2 bytes @ 0x00000014)
T6DC4 002:228.948   Data:  75 04
T6DC4 002:228.978 - 0.380ms returns 0x02
T6DC4 002:229.001   JLINK_ReadMemEx(0x00000016, 0x0002 Bytes, ..., Flags = 0x02000000)
T6DC4 002:229.043   CPU_ReadMem(2 bytes @ 0x00000016)
T6DC4 002:229.300   Data:  00 00
T6DC4 002:229.344 - 0.351ms returns 0x02
T6DC4 002:707.389 JLINK_WriteMemEx(0x00000000, 0x1000 Bytes, ..., Flags = 0x02000000)
T6DC4 002:707.434   Data:  00 00 02 20 3D 04 00 00 79 04 00 00 89 1C 00 00 ...
T6DC4 002:708.142   CPU_WriteMem(4096 bytes @ 0x00000000)
T6DC4 002:720.179 - 12.810ms returns 0x1000
T6DC4 002:721.057 JLINK_WriteMemEx(0x00001000, 0x1000 Bytes, ..., Flags = 0x02000000)
T6DC4 002:721.132   Data:  28 75 69 6E 74 33 32 5F 74 29 28 31 20 3C 3C 20 ...
T6DC4 002:721.187   CPU_WriteMem(4096 bytes @ 0x00001000)
T6DC4 002:733.325 - 12.291ms returns 0x1000
T6DC4 002:734.069 JLINK_WriteMemEx(0x00002000, 0x1000 Bytes, ..., Flags = 0x02000000)
T6DC4 002:734.094   Data:  40 EA 02 20 01 2F 40 EA 83 00 03 D1 39 B1 20 F4 ...
T6DC4 002:734.135   CPU_WriteMem(4096 bytes @ 0x00002000)
T6DC4 002:746.206 - 12.180ms returns 0x1000
T6DC4 002:747.790 JLINK_WriteMemEx(0x00003000, 0x1000 Bytes, ..., Flags = 0x02000000)
T6DC4 002:747.818   Data:  05 4B 03 EB 82 02 13 68 03 24 84 40 81 40 A3 43 ...
T6DC4 002:747.896   CPU_WriteMem(4096 bytes @ 0x00003000)
T6DC4 002:760.030 - 12.261ms returns 0x1000
T6DC4 002:760.762 JLINK_WriteMemEx(0x00004000, 0x1000 Bytes, ..., Flags = 0x02000000)
T6DC4 002:760.786   Data:  00 E1 F5 05 00 CA 9A 3B 2D E9 F0 4D 04 26 92 46 ...
T6DC4 002:760.835   CPU_WriteMem(4096 bytes @ 0x00004000)
T6DC4 002:772.932 - 12.192ms returns 0x1000
T6DC4 002:774.899 JLINK_WriteMemEx(0x00005000, 0x1000 Bytes, ..., Flags = 0x02000000)
T6DC4 002:774.926   Data:  8E E8 0E 10 DF F8 C0 C0 DF F8 8C 80 A8 F1 20 08 ...
T6DC4 002:774.969   CPU_WriteMem(4096 bytes @ 0x00005000)
T6DC4 002:787.072 - 12.207ms returns 0x1000
T6DC4 002:788.589 JLINK_WriteMemEx(0x00006000, 0x0888 Bytes, ..., Flags = 0x02000000)
T6DC4 002:788.616   Data:  40 42 0F 00 4C 00 00 00 2D E9 FF 4D 86 B0 9A 46 ...
T6DC4 002:788.650   CPU_WriteMem(2184 bytes @ 0x00006000)
T6DC4 002:795.265 - 6.694ms returns 0x888
T6DC4 002:850.756   JLINK_ReadMemEx(0x401F4490, 0x0004 Bytes, ..., Flags = 0x02000000)
T6DC4 002:850.850   CPU_ReadMem(4 bytes @ 0x401F4490)
T6DC4 002:851.250   Data:  00 9C 00 00
T6DC4 002:851.283 - 0.537ms returns 0x04
T6DC4 002:851.399   JLINK_ReadMemEx(0x40080004, 0x0004 Bytes, ..., Flags = 0x02000000)
T6DC4 002:851.432   CPU_ReadMem(4 bytes @ 0x40080004)
T6DC4 002:851.724   Data:  9C A2 1B 13
T6DC4 002:851.757 - 0.367ms returns 0x04
T6DC4 002:851.861 JLINK_WriteMemEx(0x40080004, 0x0004 Bytes, ..., Flags = 0x02000000)
T6DC4 002:851.902   Data:  9C A2 1B 13
T6DC4 002:851.948   CPU_WriteMem(4 bytes @ 0x40080004)
T6DC4 002:852.236 - 0.391ms returns 0x04
T6DC4 002:852.285   JLINK_ReadMemEx(0x401F4480, 0x0004 Bytes, ..., Flags = 0x02000000)
T6DC4 002:852.317   CPU_ReadMem(4 bytes @ 0x401F4480)
T6DC4 002:852.598   Data:  00 00 00 00
T6DC4 002:852.645 - 0.383ms returns 0x04
T6DC4 002:899.065   JLINK_ReadMemEx(0x00000000, 0x0004 Bytes, ..., Flags = 0x02000000)
T6DC4 002:899.146   CPU_ReadMem(4 bytes @ 0x00000000)
T6DC4 002:899.437   Data:  00 00 02 20
T6DC4 002:899.487 - 0.431ms returns 0x04
T6DC4 002:899.531 JLINK_WriteReg(R13 (SP), 0x20020000)
T6DC4 002:899.604 - 0.085ms returns 0x00
T6DC4 002:899.646 JLINK_ReadReg(R0)
T6DC4 002:899.956 - 0.336ms returns 0x00000000
T6DC4 002:899.999 JLINK_ReadReg(R1)
T6DC4 002:900.017 - 0.026ms returns 0x00000000
T6DC4 002:900.037 JLINK_ReadReg(R2)
T6DC4 002:900.055 - 0.026ms returns 0x00000000
T6DC4 002:900.074 JLINK_ReadReg(R3)
T6DC4 002:900.091 - 0.025ms returns 0x00000000
T6DC4 002:900.111 JLINK_ReadReg(R4)
T6DC4 002:900.128 - 0.025ms returns 0x00000000
T6DC4 002:900.147 JLINK_ReadReg(R5)
T6DC4 002:900.179 - 0.055ms returns 0x00000000
T6DC4 002:900.215 JLINK_ReadReg(R6)
T6DC4 002:900.231 - 0.025ms returns 0x00000000
T6DC4 002:900.252 JLINK_ReadReg(R7)
T6DC4 002:900.268 - 0.025ms returns 0x00000000
T6DC4 002:900.288 JLINK_ReadReg(R8)
T6DC4 002:900.305 - 0.025ms returns 0x00000000
T6DC4 002:900.324 JLINK_ReadReg(R9)
T6DC4 002:900.341 - 0.024ms returns 0x00000000
T6DC4 002:900.360 JLINK_ReadReg(R10)
T6DC4 002:900.376 - 0.024ms returns 0x00000000
T6DC4 002:900.396 JLINK_ReadReg(R11)
T6DC4 002:900.413 - 0.025ms returns 0x00000000
T6DC4 002:900.433 JLINK_ReadReg(R12)
T6DC4 002:900.450 - 0.025ms returns 0x00000000
T6DC4 002:900.469 JLINK_ReadReg(R13 (SP))
T6DC4 002:900.486 - 0.040ms returns 0x20020000
T6DC4 002:900.521 JLINK_ReadReg(R14)
T6DC4 002:900.538 - 0.025ms returns 0xFFFFFFFF
T6DC4 002:900.557 JLINK_ReadReg(R15 (PC))
T6DC4 002:900.574 - 0.025ms returns 0x00202090
T6DC4 002:900.593 JLINK_ReadReg(XPSR)
T6DC4 002:900.610 - 0.025ms returns 0x01000000
T6DC4 002:900.629 JLINK_ReadReg(MSP)
T6DC4 002:900.646 - 0.024ms returns 0x20020000
T6DC4 002:900.665 JLINK_ReadReg(PSP)
T6DC4 002:900.682 - 0.024ms returns 0x00000000
T6DC4 002:900.701 JLINK_ReadReg(CFBP)
T6DC4 002:900.718 - 0.024ms returns 0x00000000
T6DC4 002:900.738 JLINK_ReadReg(FPSCR)
T6DC4 002:900.755 - 0.025ms returns 0x00000000
T6DC4 002:900.775 JLINK_ReadReg(FPS0)
T6DC4 002:900.807 - 0.055ms returns 0x00000000
T6DC4 002:900.842 JLINK_ReadReg(FPS1)
T6DC4 002:900.859 - 0.025ms returns 0x00000000
T6DC4 002:900.892 JLINK_ReadReg(FPS2)
T6DC4 002:900.909 - 0.025ms returns 0x00000000
T6DC4 002:900.928 JLINK_ReadReg(FPS3)
T6DC4 002:900.959 - 0.039ms returns 0x00000000
T6DC4 002:900.979 JLINK_ReadReg(FPS4)
T6DC4 002:900.995 - 0.038ms returns 0x00000000
T6DC4 002:901.029 JLINK_ReadReg(FPS5)
T6DC4 002:901.046 - 0.024ms returns 0x00000000
T6DC4 002:901.065 JLINK_ReadReg(FPS6)
T6DC4 002:901.082 - 0.024ms returns 0x00000000
T6DC4 002:901.101 JLINK_ReadReg(FPS7)
T6DC4 002:901.118 - 0.024ms returns 0x00000000
T6DC4 002:901.137 JLINK_ReadReg(FPS8)
T6DC4 002:901.155 - 0.026ms returns 0x00000000
T6DC4 002:901.174 JLINK_ReadReg(FPS9)
T6DC4 002:901.191 - 0.024ms returns 0x00000000
T6DC4 002:901.210 JLINK_ReadReg(FPS10)
T6DC4 002:901.227 - 0.024ms returns 0x00000000
T6DC4 002:901.246 JLINK_ReadReg(FPS11)
T6DC4 002:901.263 - 0.024ms returns 0x00000000
T6DC4 002:901.282 JLINK_ReadReg(FPS12)
T6DC4 002:901.299 - 0.025ms returns 0x00000000
T6DC4 002:901.318 JLINK_ReadReg(FPS13)
T6DC4 002:901.335 - 0.024ms returns 0x00000000
T6DC4 002:901.354 JLINK_ReadReg(FPS14)
T6DC4 002:901.371 - 0.024ms returns 0x00000000
T6DC4 002:901.390 JLINK_ReadReg(FPS15)
T6DC4 002:901.406 - 0.024ms returns 0xFFFFFFFF
T6DC4 002:901.426 JLINK_ReadReg(FPS16)
T6DC4 002:901.443 - 0.026ms returns 0x00000000
T6DC4 002:901.463 JLINK_ReadReg(FPS17)
T6DC4 002:901.480 - 0.024ms returns 0x00000000
T6DC4 002:901.499 JLINK_ReadReg(FPS18)
T6DC4 002:901.516 - 0.024ms returns 0x00000000
T6DC4 002:901.535 JLINK_ReadReg(FPS19)
T6DC4 002:901.551 - 0.024ms returns 0x00000000
T6DC4 002:901.571 JLINK_ReadReg(FPS20)
T6DC4 002:901.588 - 0.024ms returns 0x00000000
T6DC4 002:901.607 JLINK_ReadReg(FPS21)
T6DC4 002:901.624 - 0.038ms returns 0x00000000
T6DC4 002:901.672 JLINK_ReadReg(FPS22)
T6DC4 002:901.688 - 0.025ms returns 0x00000000
T6DC4 002:901.707 JLINK_ReadReg(FPS23)
T6DC4 002:901.724 - 0.027ms returns 0x00000000
T6DC4 002:901.763 JLINK_ReadReg(FPS24)
T6DC4 002:901.785 - 0.032ms returns 0x00000000
T6DC4 002:901.809 JLINK_ReadReg(FPS25)
T6DC4 002:901.872 - 0.074ms returns 0x00000000
T6DC4 002:901.913 JLINK_ReadReg(FPS26)
T6DC4 002:901.930 - 0.025ms returns 0x00000000
T6DC4 002:901.965 JLINK_ReadReg(FPS27)
T6DC4 002:901.981 - 0.024ms returns 0x00000000
T6DC4 002:902.000 JLINK_ReadReg(FPS28)
T6DC4 002:902.017 - 0.024ms returns 0x00000000
T6DC4 002:902.039 JLINK_ReadReg(FPS29)
T6DC4 002:902.055 - 0.024ms returns 0x00000000
T6DC4 002:902.075 JLINK_ReadReg(FPS30)
T6DC4 002:902.091 - 0.024ms returns 0x00000000
T6DC4 002:902.111 JLINK_ReadReg(FPS31)
T6DC4 002:902.128 - 0.024ms returns 0xFFFFFFFF
T6DC4 002:902.151   JLINK_ReadMemEx(0x00000004, 0x0004 Bytes, ..., Flags = 0x02000000)
T6DC4 002:902.181   CPU_ReadMem(4 bytes @ 0x00000004)
T6DC4 002:902.496   Data:  3D 04 00 00
T6DC4 002:902.546 - 0.417ms returns 0x04
T6DC4 002:902.645 JLINK_WriteReg(R15 (PC), 0x0000043C)
T6DC4 002:902.665 - 0.029ms returns 0x00
T6DC4 002:902.690 JLINK_ReadReg(R0)
T6DC4 002:902.707 - 0.026ms returns 0x00000000
T6DC4 002:902.729 JLINK_ReadReg(R1)
T6DC4 002:902.763 - 0.042ms returns 0x00000000
T6DC4 002:902.782 JLINK_ReadReg(R2)
T6DC4 002:902.799 - 0.026ms returns 0x00000000
T6DC4 002:902.835 JLINK_ReadReg(R3)
T6DC4 002:902.866 - 0.039ms returns 0x00000000
T6DC4 002:902.885 JLINK_ReadReg(R4)
T6DC4 002:902.916 - 0.039ms returns 0x00000000
T6DC4 002:902.936 JLINK_ReadReg(R5)
T6DC4 002:902.952 - 0.038ms returns 0x00000000
T6DC4 002:902.985 JLINK_ReadReg(R6)
T6DC4 002:903.002 - 0.025ms returns 0x00000000
T6DC4 002:903.021 JLINK_ReadReg(R7)
T6DC4 002:903.038 - 0.024ms returns 0x00000000
T6DC4 002:903.057 JLINK_ReadReg(R8)
T6DC4 002:903.074 - 0.024ms returns 0x00000000
T6DC4 002:903.093 JLINK_ReadReg(R9)
T6DC4 002:903.109 - 0.024ms returns 0x00000000
T6DC4 002:903.128 JLINK_ReadReg(R10)
T6DC4 002:903.145 - 0.025ms returns 0x00000000
T6DC4 002:903.165 JLINK_ReadReg(R11)
T6DC4 002:903.182 - 0.024ms returns 0x00000000
T6DC4 002:903.200 JLINK_ReadReg(R12)
T6DC4 002:903.217 - 0.024ms returns 0x00000000
T6DC4 002:903.236 JLINK_ReadReg(R13 (SP))
T6DC4 002:903.253 - 0.025ms returns 0x20020000
T6DC4 002:903.272 JLINK_ReadReg(R14)
T6DC4 002:903.288 - 0.024ms returns 0xFFFFFFFF
T6DC4 002:903.308 JLINK_ReadReg(R15 (PC))
T6DC4 002:903.324 - 0.024ms returns 0x0000043C
T6DC4 002:903.343 JLINK_ReadReg(XPSR)
T6DC4 002:903.360 - 0.024ms returns 0x01000000
T6DC4 002:903.379 JLINK_ReadReg(MSP)
T6DC4 002:903.396 - 0.024ms returns 0x20020000
T6DC4 002:903.415 JLINK_ReadReg(PSP)
T6DC4 002:903.431 - 0.025ms returns 0x00000000
T6DC4 002:903.451 JLINK_ReadReg(CFBP)
T6DC4 002:903.468 - 0.024ms returns 0x00000000
T6DC4 002:903.487 JLINK_ReadReg(FPSCR)
T6DC4 002:903.504 - 0.024ms returns 0x00000000
T6DC4 002:903.523 JLINK_ReadReg(FPS0)
T6DC4 002:903.539 - 0.024ms returns 0x00000000
T6DC4 002:903.558 JLINK_ReadReg(FPS1)
T6DC4 002:903.575 - 0.024ms returns 0x00000000
T6DC4 002:903.595 JLINK_ReadReg(FPS2)
T6DC4 002:903.611 - 0.025ms returns 0x00000000
T6DC4 002:903.630 JLINK_ReadReg(FPS3)
T6DC4 002:903.647 - 0.024ms returns 0x00000000
T6DC4 002:903.666 JLINK_ReadReg(FPS4)
T6DC4 002:903.683 - 0.027ms returns 0x00000000
T6DC4 002:903.718 JLINK_ReadReg(FPS5)
T6DC4 002:903.737 - 0.027ms returns 0x00000000
T6DC4 002:903.757 JLINK_ReadReg(FPS6)
T6DC4 002:903.774 - 0.038ms returns 0x00000000
T6DC4 002:903.807 JLINK_ReadReg(FPS7)
T6DC4 002:903.824 - 0.024ms returns 0x00000000
T6DC4 002:903.843 JLINK_ReadReg(FPS8)
T6DC4 002:903.860 - 0.041ms returns 0x00000000
T6DC4 002:903.897 JLINK_ReadReg(FPS9)
T6DC4 002:903.914 - 0.025ms returns 0x00000000
T6DC4 002:903.959 JLINK_ReadReg(FPS10)
T6DC4 002:903.976 - 0.025ms returns 0x00000000
T6DC4 002:904.013 JLINK_ReadReg(FPS11)
T6DC4 002:904.030 - 0.024ms returns 0x00000000
T6DC4 002:904.049 JLINK_ReadReg(FPS12)
T6DC4 002:904.066 - 0.024ms returns 0x00000000
T6DC4 002:904.085 JLINK_ReadReg(FPS13)
T6DC4 002:904.102 - 0.025ms returns 0x00000000
T6DC4 002:904.122 JLINK_ReadReg(FPS14)
T6DC4 002:904.138 - 0.024ms returns 0x00000000
T6DC4 002:904.158 JLINK_ReadReg(FPS15)
T6DC4 002:904.174 - 0.024ms returns 0xFFFFFFFF
T6DC4 002:904.226 JLINK_ReadReg(FPS16)
T6DC4 002:904.246 - 0.029ms returns 0x00000000
T6DC4 002:904.266 JLINK_ReadReg(FPS17)
T6DC4 002:904.283 - 0.024ms returns 0x00000000
T6DC4 002:904.303 JLINK_ReadReg(FPS18)
T6DC4 002:904.319 - 0.024ms returns 0x00000000
T6DC4 002:904.338 JLINK_ReadReg(FPS19)
T6DC4 002:904.355 - 0.024ms returns 0x00000000
T6DC4 002:904.374 JLINK_ReadReg(FPS20)
T6DC4 002:904.391 - 0.024ms returns 0x00000000
T6DC4 002:904.410 JLINK_ReadReg(FPS21)
T6DC4 002:904.428 - 0.025ms returns 0x00000000
T6DC4 002:904.447 JLINK_ReadReg(FPS22)
T6DC4 002:904.464 - 0.024ms returns 0x00000000
T6DC4 002:904.483 JLINK_ReadReg(FPS23)
T6DC4 002:904.500 - 0.024ms returns 0x00000000
T6DC4 002:904.519 JLINK_ReadReg(FPS24)
T6DC4 002:904.536 - 0.024ms returns 0x00000000
T6DC4 002:904.555 JLINK_ReadReg(FPS25)
T6DC4 002:904.571 - 0.024ms returns 0x00000000
T6DC4 002:904.591 JLINK_ReadReg(FPS26)
T6DC4 002:904.607 - 0.024ms returns 0x00000000
T6DC4 002:904.627 JLINK_ReadReg(FPS27)
T6DC4 002:904.643 - 0.024ms returns 0x00000000
T6DC4 002:904.662 JLINK_ReadReg(FPS28)
T6DC4 002:904.679 - 0.024ms returns 0x00000000
T6DC4 002:904.698 JLINK_ReadReg(FPS29)
T6DC4 002:904.715 - 0.026ms returns 0x00000000
T6DC4 002:904.736 JLINK_ReadReg(FPS30)
T6DC4 002:904.752 - 0.024ms returns 0x00000000
T6DC4 002:904.771 JLINK_ReadReg(FPS31)
T6DC4 002:904.788 - 0.024ms returns 0xFFFFFFFF
T6DC4 002:904.809 JLINK_WriteMemEx(0xE000ED08, 0x0004 Bytes, ..., Flags = 0x02000000)
T6DC4 002:904.826   Data:  00 00 00 00
T6DC4 002:904.856   CPU_WriteMem(4 bytes @ 0xE000ED08)
T6DC4 002:905.151 - 0.357ms returns 0x04
T6DC4 002:908.425   JLINK_ReadMemEx(0x000028F2, 0x0002 Bytes, ..., Flags = 0x02000000)
T6DC4 002:908.463   CPU_ReadMem(2 bytes @ 0x000028F2)
T6DC4 002:908.793   Data:  06 F2
T6DC4 002:908.824 - 0.408ms returns 0x02
T6DC4 002:908.847   JLINK_ReadMemEx(0x000028F4, 0x003C Bytes, ..., Flags = 0x02000000)
T6DC4 002:908.875   CPU_ReadMem(60 bytes @ 0x000028F4)
T6DC4 002:909.359   Data:  81 20 80 47 06 F2 A5 21 4F F0 C0 40 88 47 D4 F8 ...
T6DC4 002:909.390 - 0.551ms returns 0x3C
T6DC4 002:909.412   JLINK_ReadMemEx(0x000028F4, 0x0002 Bytes, ..., Flags = 0x02000000)
T6DC4 002:909.439   CPU_ReadMem(2 bytes @ 0x000028F4)
T6DC4 002:909.759   Data:  81 20
T6DC4 002:909.807 - 0.403ms returns 0x02
T6DC4 002:909.835   JLINK_ReadMemEx(0x000028F6, 0x0002 Bytes, ..., Flags = 0x02000000)
T6DC4 002:909.863   CPU_ReadMem(2 bytes @ 0x000028F6)
T6DC4 002:910.172   Data:  80 47
T6DC4 002:910.203 - 0.376ms returns 0x02
T6DC4 002:910.226   JLINK_ReadMemEx(0x000028F8, 0x003C Bytes, ..., Flags = 0x02000000)
T6DC4 002:910.253   CPU_ReadMem(60 bytes @ 0x000028F8)
T6DC4 002:910.733   Data:  06 F2 A5 21 4F F0 C0 40 88 47 D4 F8 10 02 00 F0 ...
T6DC4 002:910.764 - 0.546ms returns 0x3C
T6DC4 002:910.786   JLINK_ReadMemEx(0x000028F8, 0x0002 Bytes, ..., Flags = 0x02000000)
T6DC4 002:910.813   CPU_ReadMem(2 bytes @ 0x000028F8)
T6DC4 002:911.124   Data:  06 F2
T6DC4 002:911.156 - 0.378ms returns 0x02
T6DC4 002:911.186   JLINK_ReadMemEx(0x000028F8, 0x003C Bytes, ..., Flags = 0x02000000)
T6DC4 002:911.214   CPU_ReadMem(60 bytes @ 0x000028F8)
T6DC4 002:911.714   Data:  06 F2 A5 21 4F F0 C0 40 88 47 D4 F8 10 02 00 F0 ...
T6DC4 002:911.759 - 0.582ms returns 0x3C
T6DC4 002:911.782   JLINK_ReadMemEx(0x000028F8, 0x0002 Bytes, ..., Flags = 0x02000000)
T6DC4 002:911.824   CPU_ReadMem(2 bytes @ 0x000028F8)
T6DC4 002:912.144   Data:  06 F2
T6DC4 002:912.177 - 0.403ms returns 0x02
T6DC4 002:912.199   JLINK_ReadMemEx(0x000028FA, 0x0002 Bytes, ..., Flags = 0x02000000)
T6DC4 002:912.226   CPU_ReadMem(2 bytes @ 0x000028FA)
T6DC4 002:912.519   Data:  A5 21
T6DC4 002:912.550 - 0.359ms returns 0x02
T6DC4 002:912.578   JLINK_ReadMemEx(0x000028FC, 0x003C Bytes, ..., Flags = 0x02000000)
T6DC4 002:912.606   CPU_ReadMem(60 bytes @ 0x000028FC)
T6DC4 002:913.071   Data:  4F F0 C0 40 88 47 D4 F8 10 02 00 F0 17 F8 D4 F8 ...
T6DC4 002:913.102 - 0.532ms returns 0x3C
T6DC4 002:913.124   JLINK_ReadMemEx(0x000028FC, 0x0002 Bytes, ..., Flags = 0x02000000)
T6DC4 002:913.192   CPU_ReadMem(2 bytes @ 0x000028FC)
T6DC4 002:913.479   Data:  4F F0
T6DC4 002:913.511 - 0.394ms returns 0x02
T6DC4 002:913.533   JLINK_ReadMemEx(0x000028FE, 0x0002 Bytes, ..., Flags = 0x02000000)
T6DC4 002:913.560   CPU_ReadMem(2 bytes @ 0x000028FE)
T6DC4 002:913.827   Data:  C0 40
T6DC4 002:913.889 - 0.374ms returns 0x02
T6DC4 002:913.943   JLINK_ReadMemEx(0x00002900, 0x003C Bytes, ..., Flags = 0x02000000)
T6DC4 002:913.981   CPU_ReadMem(60 bytes @ 0x00002900)
T6DC4 002:914.441   Data:  88 47 D4 F8 10 02 00 F0 17 F8 D4 F8 10 22 4F F0 ...
T6DC4 002:914.544 - 0.610ms returns 0x3C
T6DC4 002:914.586   JLINK_ReadMemEx(0x00002900, 0x0002 Bytes, ..., Flags = 0x02000000)
T6DC4 002:914.649   CPU_ReadMem(2 bytes @ 0x00002900)
T6DC4 002:914.978   Data:  88 47
T6DC4 002:915.038 - 0.461ms returns 0x02
T6DC4 002:915.074   JLINK_ReadMemEx(0x00002902, 0x0002 Bytes, ..., Flags = 0x02000000)
T6DC4 002:915.101   CPU_ReadMem(2 bytes @ 0x00002902)
T6DC4 002:915.473   Data:  D4 F8
T6DC4 002:915.506 - 0.441ms returns 0x02
T6DC4 002:915.535   JLINK_ReadMemEx(0x00002902, 0x0002 Bytes, ..., Flags = 0x02000000)
T6DC4 002:915.564   CPU_ReadMem(2 bytes @ 0x00002902)
T6DC4 002:915.869   Data:  D4 F8
T6DC4 002:915.915 - 0.388ms returns 0x02
T6DC4 002:915.938   JLINK_ReadMemEx(0x00002904, 0x003C Bytes, ..., Flags = 0x02000000)
T6DC4 002:915.966   CPU_ReadMem(60 bytes @ 0x00002904)
T6DC4 002:916.464   Data:  10 02 00 F0 17 F8 D4 F8 10 22 4F F0 C0 41 05 46 ...
T6DC4 002:916.496 - 0.565ms returns 0x3C
T6DC4 002:916.518   JLINK_ReadMemEx(0x00002904, 0x0002 Bytes, ..., Flags = 0x02000000)
T6DC4 002:916.546   CPU_ReadMem(2 bytes @ 0x00002904)
T6DC4 002:916.864   Data:  10 02
T6DC4 002:916.896 - 0.387ms returns 0x02
T6DC4 002:916.925   JLINK_ReadMemEx(0x00002906, 0x0002 Bytes, ..., Flags = 0x02000000)
T6DC4 002:916.956   CPU_ReadMem(2 bytes @ 0x00002906)
T6DC4 002:917.234   Data:  00 F0
T6DC4 002:917.266 - 0.350ms returns 0x02
T6DC4 002:917.289   JLINK_ReadMemEx(0x00002908, 0x003C Bytes, ..., Flags = 0x02000000)
T6DC4 002:917.317   CPU_ReadMem(60 bytes @ 0x00002908)
T6DC4 002:917.758   Data:  17 F8 D4 F8 10 22 4F F0 C0 41 05 46 FD F7 94 FE ...
T6DC4 002:917.822 - 0.562ms returns 0x3C
T6DC4 002:917.899   JLINK_ReadMemEx(0x00002908, 0x0002 Bytes, ..., Flags = 0x02000000)
T6DC4 002:917.926   CPU_ReadMem(2 bytes @ 0x00002908)
T6DC4 002:918.231   Data:  17 F8
T6DC4 002:918.264 - 0.372ms returns 0x02
T6DC4 002:988.812 JLINK_ReadMemU32(0xE0001004, 0x0001 Items, ...)
T6DC4 002:988.897   Data:  00 00 00 00
T6DC4 002:988.923    - DWT_CYCCNT
T6DC4 002:988.963 - 0.159ms returns 1
T6DC4 002:989.265   JLINK_ReadMemEx(0x60000000, 0x00A0 Bytes, ..., Flags = 0x02000000)
T6DC4 002:989.301    -- Read from C cache (160 bytes @ 0x60000000)
T6DC4 002:989.333   Data:  56 56 56 56 56 56 56 56 56 56 56 56 56 56 56 56 ...
T6DC4 002:989.356 - 0.100ms returns 0xA0
T6DC4 002:990.350   JLINK_ReadMemEx(0x0000043C, 0x003C Bytes, ..., Flags = 0x02000000)
T6DC4 002:990.393   CPU_ReadMem(60 bytes @ 0x0000043C)
T6DC4 002:990.909   Data:  72 B6 09 48 09 49 01 60 0A 68 82 F3 08 88 08 48 ...
T6DC4 002:990.955 - 0.614ms returns 0x3C
T6DC4 002:990.978   JLINK_ReadMemEx(0x0000043C, 0x0002 Bytes, ..., Flags = 0x02000000)
T6DC4 002:991.007   CPU_ReadMem(2 bytes @ 0x0000043C)
T6DC4 002:991.357   Data:  72 B6
T6DC4 002:991.389 - 0.419ms returns 0x02
T6DC4 002:991.427   JLINK_ReadMemEx(0x0000043E, 0x0002 Bytes, ..., Flags = 0x02000000)
T6DC4 002:991.455   CPU_ReadMem(2 bytes @ 0x0000043E)
T6DC4 002:991.765   Data:  09 48
T6DC4 002:991.798 - 0.380ms returns 0x02
T6DC4 002:991.851   JLINK_ReadMemEx(0x0000043E, 0x0002 Bytes, ..., Flags = 0x02000000)
T6DC4 002:991.882   CPU_ReadMem(2 bytes @ 0x0000043E)
T6DC4 002:992.152   Data:  09 48
T6DC4 002:992.209 - 0.369ms returns 0x02
T6DC4 002:992.235   JLINK_ReadMemEx(0x00000440, 0x003C Bytes, ..., Flags = 0x02000000)
T6DC4 002:992.262   CPU_ReadMem(60 bytes @ 0x00000440)
T6DC4 002:992.704   Data:  09 49 01 60 0A 68 82 F3 08 88 08 48 80 47 62 B6 ...
T6DC4 002:992.731 - 0.508ms returns 0x3C
T6DC4 002:992.758   JLINK_ReadMemEx(0x00000440, 0x0002 Bytes, ..., Flags = 0x02000000)
T6DC4 002:992.784   CPU_ReadMem(2 bytes @ 0x00000440)
T6DC4 002:993.037   Data:  09 49
T6DC4 002:993.065 - 0.315ms returns 0x02
T6DC4 002:993.095   JLINK_ReadMemEx(0x00000440, 0x003C Bytes, ..., Flags = 0x02000000)
T6DC4 002:993.122   CPU_ReadMem(60 bytes @ 0x00000440)
T6DC4 002:993.604   Data:  09 49 01 60 0A 68 82 F3 08 88 08 48 80 47 62 B6 ...
T6DC4 002:993.632 - 0.544ms returns 0x3C
T6DC4 002:993.652   JLINK_ReadMemEx(0x00000440, 0x0002 Bytes, ..., Flags = 0x02000000)
T6DC4 002:993.679   CPU_ReadMem(2 bytes @ 0x00000440)
T6DC4 002:993.947   Data:  09 49
T6DC4 002:993.975 - 0.330ms returns 0x02
T6DC4 002:993.996   JLINK_ReadMemEx(0x00000442, 0x0002 Bytes, ..., Flags = 0x02000000)
T6DC4 002:994.022   CPU_ReadMem(2 bytes @ 0x00000442)
T6DC4 002:994.268   Data:  01 60
T6DC4 002:994.295 - 0.307ms returns 0x02
T6DC4 002:994.323   JLINK_ReadMemEx(0x00000442, 0x0002 Bytes, ..., Flags = 0x02000000)
T6DC4 002:994.351   CPU_ReadMem(2 bytes @ 0x00000442)
T6DC4 002:994.634   Data:  01 60
T6DC4 002:994.688 - 0.390ms returns 0x02
T6DC4 002:994.729   JLINK_ReadMemEx(0x00000444, 0x003C Bytes, ..., Flags = 0x02000000)
T6DC4 002:994.777   CPU_ReadMem(60 bytes @ 0x00000444)
T6DC4 002:995.220   Data:  0A 68 82 F3 08 88 08 48 80 47 62 B6 07 48 00 47 ...
T6DC4 002:995.249 - 0.529ms returns 0x3C
T6DC4 002:995.288   JLINK_ReadMemEx(0x00000444, 0x0002 Bytes, ..., Flags = 0x02000000)
T6DC4 002:995.316   CPU_ReadMem(2 bytes @ 0x00000444)
T6DC4 002:995.562   Data:  0A 68
T6DC4 002:995.599 - 0.320ms returns 0x02
T6DC4 002:995.635   JLINK_ReadMemEx(0x00000444, 0x003C Bytes, ..., Flags = 0x02000000)
T6DC4 002:995.666   CPU_ReadMem(60 bytes @ 0x00000444)
T6DC4 002:996.105   Data:  0A 68 82 F3 08 88 08 48 80 47 62 B6 07 48 00 47 ...
T6DC4 002:996.135 - 0.509ms returns 0x3C
T6DC4 002:996.157   JLINK_ReadMemEx(0x00000444, 0x0002 Bytes, ..., Flags = 0x02000000)
T6DC4 002:996.185   CPU_ReadMem(2 bytes @ 0x00000444)
T6DC4 002:996.421   Data:  0A 68
T6DC4 002:996.450 - 0.314ms returns 0x02
T6DC4 002:996.488   JLINK_ReadMemEx(0x00000446, 0x0002 Bytes, ..., Flags = 0x02000000)
T6DC4 002:996.566   CPU_ReadMem(2 bytes @ 0x00000446)
T6DC4 002:996.820   Data:  82 F3
T6DC4 002:996.880 - 0.401ms returns 0x02
T6DC4 002:996.926   JLINK_ReadMemEx(0x00000446, 0x0002 Bytes, ..., Flags = 0x02000000)
T6DC4 002:996.955   CPU_ReadMem(2 bytes @ 0x00000446)
T6DC4 002:997.316   Data:  82 F3
T6DC4 002:997.344 - 0.427ms returns 0x02
T6DC4 002:997.367   JLINK_ReadMemEx(0x00000448, 0x003C Bytes, ..., Flags = 0x02000000)
T6DC4 002:997.396   CPU_ReadMem(60 bytes @ 0x00000448)
T6DC4 002:997.803   Data:  08 88 08 48 80 47 62 B6 07 48 00 47 38 C0 0A 40 ...
T6DC4 002:997.832 - 0.473ms returns 0x3C
T6DC4 002:997.853   JLINK_ReadMemEx(0x00000448, 0x0002 Bytes, ..., Flags = 0x02000000)
T6DC4 002:997.880   CPU_ReadMem(2 bytes @ 0x00000448)
T6DC4 002:998.115   Data:  08 88
T6DC4 002:998.146 - 0.301ms returns 0x02
T6DC4 002:998.175   JLINK_ReadMemEx(0x0000044A, 0x0002 Bytes, ..., Flags = 0x02000000)
T6DC4 002:998.203   CPU_ReadMem(2 bytes @ 0x0000044A)
T6DC4 002:998.446   Data:  08 48
T6DC4 002:998.477 - 0.310ms returns 0x02
T6DC4 002:998.499   JLINK_ReadMemEx(0x0000044C, 0x003C Bytes, ..., Flags = 0x02000000)
T6DC4 002:998.526   CPU_ReadMem(60 bytes @ 0x0000044C)
T6DC4 002:998.952   Data:  80 47 62 B6 07 48 00 47 38 C0 0A 40 44 C0 0A 40 ...
T6DC4 002:998.981 - 0.490ms returns 0x3C
T6DC4 002:999.002   JLINK_ReadMemEx(0x0000044C, 0x0002 Bytes, ..., Flags = 0x02000000)
T6DC4 002:999.029   CPU_ReadMem(2 bytes @ 0x0000044C)
T6DC4 002:999.258   Data:  80 47
T6DC4 002:999.286 - 0.293ms returns 0x02
T6DC4 002:999.316   JLINK_ReadMemEx(0x0000044C, 0x003C Bytes, ..., Flags = 0x02000000)
T6DC4 002:999.344   CPU_ReadMem(60 bytes @ 0x0000044C)
T6DC4 002:999.741   Data:  80 47 62 B6 07 48 00 47 38 C0 0A 40 44 C0 0A 40 ...
T6DC4 002:999.770 - 0.462ms returns 0x3C
T6DC4 002:999.792   JLINK_ReadMemEx(0x0000044C, 0x0002 Bytes, ..., Flags = 0x02000000)
T6DC4 002:999.826   CPU_ReadMem(2 bytes @ 0x0000044C)
T6DC4 003:000.114   Data:  80 47
T6DC4 003:000.212 - 0.428ms returns 0x02
T6DC4 003:000.235   JLINK_ReadMemEx(0x0000044E, 0x0002 Bytes, ..., Flags = 0x02000000)
T6DC4 003:000.279   CPU_ReadMem(2 bytes @ 0x0000044E)
T6DC4 003:000.531   Data:  62 B6
T6DC4 003:000.577 - 0.350ms returns 0x02
T6DC4 003:000.606   JLINK_ReadMemEx(0x0000044E, 0x0002 Bytes, ..., Flags = 0x02000000)
T6DC4 003:000.634   CPU_ReadMem(2 bytes @ 0x0000044E)
T6DC4 003:000.888   Data:  62 B6
T6DC4 003:000.917 - 0.319ms returns 0x02
T6DC4 003:000.939   JLINK_ReadMemEx(0x00000450, 0x003C Bytes, ..., Flags = 0x02000000)
T6DC4 003:000.966   CPU_ReadMem(60 bytes @ 0x00000450)
T6DC4 003:001.365   Data:  07 48 00 47 38 C0 0A 40 44 C0 0A 40 55 55 55 95 ...
T6DC4 003:001.394 - 0.462ms returns 0x3C
T6DC4 003:001.415   JLINK_ReadMemEx(0x00000450, 0x0002 Bytes, ..., Flags = 0x02000000)
T6DC4 003:001.442   CPU_ReadMem(2 bytes @ 0x00000450)
T6DC4 003:001.674   Data:  07 48
T6DC4 003:001.703 - 0.296ms returns 0x02
T6DC4 003:001.732   JLINK_ReadMemEx(0x00000450, 0x003C Bytes, ..., Flags = 0x02000000)
T6DC4 003:001.760   CPU_ReadMem(60 bytes @ 0x00000450)
T6DC4 003:002.179   Data:  07 48 00 47 38 C0 0A 40 44 C0 0A 40 55 55 55 95 ...
T6DC4 003:002.208 - 0.484ms returns 0x3C
T6DC4 003:002.229   JLINK_ReadMemEx(0x00000450, 0x0002 Bytes, ..., Flags = 0x02000000)
T6DC4 003:002.258   CPU_ReadMem(2 bytes @ 0x00000450)
T6DC4 003:002.486   Data:  07 48
T6DC4 003:002.536 - 0.331ms returns 0x02
T6DC4 003:002.589   JLINK_ReadMemEx(0x00000452, 0x0002 Bytes, ..., Flags = 0x02000000)
T6DC4 003:002.617   CPU_ReadMem(2 bytes @ 0x00000452)
T6DC4 003:002.905   Data:  00 47
T6DC4 003:002.948 - 0.367ms returns 0x02
